
**** 06/15/21 18:17:49 ********* PSpice 9.2 (Mar 2000) ******** ID# 1 ********

 ** Profile: "SCHEMATIC1-Part1"  [ C:\USERS\ASUS\DESKTOP\H2\h2-SCHEMATIC1-Part1.sim ] 


 ****     CIRCUIT DESCRIPTION


******************************************************************************




** Creating circuit file "h2-SCHEMATIC1-Part1.sim.cir" 
** WARNING: THIS AUTOMATICALLY GENERATED FILE MAY BE OVERWRITTEN BY SUBSEQUENT SIMULATIONS

*Libraries: 
* Local Libraries :
* From [PSPICE NETLIST] section of C:\Program Files\Orcad\PSpice\PSpice.ini file:
.lib "nom.lib" 

*Analysis directives: 
.PROBE V(*) I(*) W(*) D(*) NOISE(*) 
.INC ".\h2-SCHEMATIC1.net" 



**** INCLUDING h2-SCHEMATIC1.net ****
* source H2
Q_Q1         N00981 BE N00403 BC368 
V_V1         N14754 0  
+SIN 0 1 10 0 0 0
C_C2         N15392 BE  1u  
R_RB3         N13389 N13836  480k  
R_RB4         0 N13389  160k  
R_RE3         0 N00403  3k  
R_RB5         BE N13836  97.2k  
R_RE6         0 BE  360k  
R_RC2         0 N15392  1k  
Q_Q2         N15392 N13389 N15015 Q2N4355
R_Re         0 N02275  1.81k  
R_RE2         N15015 N13836  0.75k  
R_RC3         N00981 N13836  0.9k  
V_VDC         N13836 0 10Vdc
C_C3         N14754 N13389  1u  
C_C1         N00403 N02275  1u IC=0 

**** RESUMING h2-SCHEMATIC1-Part1.sim.cir ****
.END

**** 06/15/21 18:17:49 ********* PSpice 9.2 (Mar 2000) ******** ID# 1 ********

 ** Profile: "SCHEMATIC1-Part1"  [ C:\USERS\ASUS\DESKTOP\H2\h2-SCHEMATIC1-Part1.sim ] 


 ****     BJT MODEL PARAMETERS


******************************************************************************




               BC368           Q2N4355         
               NPN             PNP             
          IS   14.060000E-15   12.270000E-12 
          BF  187.6           194.8          
          NF    1               1            
         VAF  100             100            
         IKF    4.103           1.123        
         ISE  137.200000E-15   12.270000E-12 
          NE    1.468           1.649        
          BR    4.541           1.184        
          NR    1               1            
         IKR    1.701                        
         ISC   44.130000E-15                 
          NC    1.471                        
          NK     .5507                       
          RB                   10            
          RC     .091            .6          
         CJE  156.000000E-12  106.700000E-12 
         VJE     .5                          
         MJE     .3333           .5168       
         CJC   52.240000E-12   48.280000E-12 
         VJC     .5                          
         MJC     .3333           .5615       
          TF  964.800000E-12  867.000000E-12 
         XTF    1.001000E+03     .8          
         VTF   10               2            
         ITF  595.3              .2          
          TR   10.000000E-09  474.500000E-09 
         XTB    1.5             1.5          
          CN    2.42            2.2          
           D     .87             .52         


**** 06/15/21 18:17:49 ********* PSpice 9.2 (Mar 2000) ******** ID# 1 ********

 ** Profile: "SCHEMATIC1-Part1"  [ C:\USERS\ASUS\DESKTOP\H2\h2-SCHEMATIC1-Part1.sim ] 


 ****     SMALL SIGNAL BIAS SOLUTION       TEMPERATURE =   27.000 DEG C


******************************************************************************



 NODE   VOLTAGE     NODE   VOLTAGE     NODE   VOLTAGE     NODE   VOLTAGE


(   BE)    5.4772  (N00403)    4.7938 (N00981)    6.2064 (N02275)    4.7938     

(N13389)    5.7684 (N13836)   10.0000 (N14754)    0.0000 (N15015)    6.2810     

(N15392)    4.9315 




    VOLTAGE SOURCE CURRENTS
    NAME         CURRENT

    V_V1         0.000E+00
    V_VDC       -9.229E-03

    TOTAL POWER DISSIPATION   9.23E-02  WATTS



          JOB CONCLUDED

          TOTAL JOB TIME             .03
