
**** 06/15/21 18:32:24 ********* PSpice 9.2 (Mar 2000) ******** ID# 1 ********

 ** Profile: "SCHEMATIC1-Part1"  [ C:\USERS\ASUS\DESKTOP\H2\test-SCHEMATIC1-Part1.sim ] 


 ****     CIRCUIT DESCRIPTION


******************************************************************************




** Creating circuit file "test-SCHEMATIC1-Part1.sim.cir" 
** WARNING: THIS AUTOMATICALLY GENERATED FILE MAY BE OVERWRITTEN BY SUBSEQUENT SIMULATIONS

*Libraries: 
* Local Libraries :
* From [PSPICE NETLIST] section of C:\Program Files\Orcad\PSpice\PSpice.ini file:
.lib "nom.lib" 

*Analysis directives: 
.PROBE V(*) I(*) W(*) D(*) NOISE(*) 
.INC ".\test-SCHEMATIC1.net" 



**** INCLUDING test-SCHEMATIC1.net ****
* source TEST
V_VDC         N01120 0 10Vdc
R_RB4         0 N05137  160k  
R_RC2         0 N04643  1k  
R_RC3         N01373 N01120  0.9k  
R_RE2         N05014 N01120  0.75k  
Q_Q3         N01373 N01175 N01237 BC368 
R_RB5         N01175 N01120  94k  
R_RB3         N05137 N01120  480k  
C_C3         N05272 N05137  1u  
R_RB6         0 N01175  360k  
R_RE3         0 N01237  3k  
V_V3         N05272 0  
+SIN 0 1 10k 0 0 0
R_Re         0 VOUT  2k  
C_C1         N01237 VOUT  1u  
C_C2         N04643 N01175  1u  
Q_Q4         N04643 N05137 N05014 Q2N4355

**** RESUMING test-SCHEMATIC1-Part1.sim.cir ****
.END

**** 06/15/21 18:32:24 ********* PSpice 9.2 (Mar 2000) ******** ID# 1 ********

 ** Profile: "SCHEMATIC1-Part1"  [ C:\USERS\ASUS\DESKTOP\H2\test-SCHEMATIC1-Part1.sim ] 


 ****     BJT MODEL PARAMETERS


******************************************************************************




               BC368           Q2N4355         
               NPN             PNP             
          IS   14.060000E-15   12.270000E-12 
          BF  187.6           194.8          
          NF    1               1            
         VAF  100             100            
         IKF    4.103           1.123        
         ISE  137.200000E-15   12.270000E-12 
          NE    1.468           1.649        
          BR    4.541           1.184        
          NR    1               1            
         IKR    1.701                        
         ISC   44.130000E-15                 
          NC    1.471                        
          NK     .5507                       
          RB                   10            
          RC     .091            .6          
         CJE  156.000000E-12  106.700000E-12 
         VJE     .5                          
         MJE     .3333           .5168       
         CJC   52.240000E-12   48.280000E-12 
         VJC     .5                          
         MJC     .3333           .5615       
          TF  964.800000E-12  867.000000E-12 
         XTF    1.001000E+03     .8          
         VTF   10               2            
         ITF  595.3              .2          
          TR   10.000000E-09  474.500000E-09 
         XTB    1.5             1.5          
          CN    2.42            2.2          
           D     .87             .52         


**** 06/15/21 18:32:24 ********* PSpice 9.2 (Mar 2000) ******** ID# 1 ********

 ** Profile: "SCHEMATIC1-Part1"  [ C:\USERS\ASUS\DESKTOP\H2\test-SCHEMATIC1-Part1.sim ] 


 ****     SMALL SIGNAL BIAS SOLUTION       TEMPERATURE =   27.000 DEG C


******************************************************************************



 NODE   VOLTAGE     NODE   VOLTAGE     NODE   VOLTAGE     NODE   VOLTAGE


( VOUT)    0.0000  (N01120)   10.0000 (N01175)    6.7400 (N01237)    6.0760     

(N01373)    8.1916 (N04643)    4.9315 (N05014)    6.2810 (N05137)    5.7684     

(N05272)    0.0000 




    VOLTAGE SOURCE CURRENTS
    NAME         CURRENT

    V_VDC       -7.012E-03
    V_V3         0.000E+00

    TOTAL POWER DISSIPATION   7.01E-02  WATTS



          JOB CONCLUDED

          TOTAL JOB TIME             .03
